
**** 12/13/19 16:24:42 ******* PSpice Lite (March 2016) ******* ID# 10813 ****

 * Matlab created *.cir-file *


 ****     CIRCUIT DESCRIPTION


******************************************************************************



.lib C:\Cadence\SPB_17.2\tools\pspice\library\eval.lib
VIN        1   0   AC 1V
R1 1 2 0.0006453982796935868
C1 1 2 0.014406180581533857
R2 2 3 0.0012725681893588031
C2 2 3 0.018352515305238
R3 3 4 0.002157068594297493
C3 3 4 0.027196480278422495
R4 4 5 0.003503689681596965
C4 4 5 0.04205823309850728
R5 5 6 0.005605777249781898
C5 5 6 0.06602992760319268
R6 6 7 0.00891768241704329
C6 6 7 0.10426166496473913
R7 7 8 0.014154442786600132
C7 7 8 0.1649999757975353
R8 8 9 0.022446504754539368
C8 8 9 0.26135326691410093
R9 9 10 0.035583931393574963
C9 9 10 0.4141166857129336
R10 10 11 0.0564032732824955
C10 10 11 0.6562545831495191
R11 11 12 0.08940169274404411
C11 11 12 1.0399941968544693
R12 12 13 0.1417150418238487
C12 12 13 1.6480132857877168
R13 13 14 0.2246874903852943
C13 13 14 2.610945245924333
R14 14 15 0.35643744274422945
C14 14 15 4.134217668012565
R15 15 16 0.5662395600004663
C15 15 16 6.536969369685508
R16 16 17 0.9027630903485048
C16 16 17 10.299185094826791
R17 17 18 1.4526756963913008
C17 17 18 16.077110142466207
R18 18 19 2.396742642878488
C18 18 19 24.476834698263556
R19 19 20 4.268827671384615
C19 19 20 34.519781232031484
R20 20 21 11.034463689840457
C20 20 21 33.54481707194572
R21 21 0 0.002158680303547402
.AC DEC 100 1 1000
.PRINT AC VM(1) VP(1) IM(VIN) IP(VIN)
.END

**** 12/13/19 16:24:42 ******* PSpice Lite (March 2016) ******* ID# 10813 ****

 * Matlab created *.cir-file *


 ****     SMALL SIGNAL BIAS SOLUTION       TEMPERATURE =   27.000 DEG C


******************************************************************************



 NODE   VOLTAGE     NODE   VOLTAGE     NODE   VOLTAGE     NODE   VOLTAGE


(    1)    0.0000  (    2)    0.0000  (    3)    0.0000  (    4)    0.0000      

(    5)    0.0000  (    6)    0.0000  (    7)    0.0000  (    8)    0.0000      

(    9)    0.0000  (   10)    0.0000  (   11)    0.0000  (   12)    0.0000      

(   13)    0.0000  (   14)    0.0000  (   15)    0.0000  (   16)    0.0000      

(   17)    0.0000  (   18)    0.0000  (   19)    0.0000  (   20)    0.0000      

(   21)    0.0000  




    VOLTAGE SOURCE CURRENTS
    NAME         CURRENT

    VIN          0.000E+00

    TOTAL POWER DISSIPATION   0.00E+00  WATTS


**** 12/13/19 16:24:42 ******* PSpice Lite (March 2016) ******* ID# 10813 ****

 * Matlab created *.cir-file *


 ****     AC ANALYSIS                      TEMPERATURE =   27.000 DEG C


******************************************************************************



  FREQ        VM(1)       VP(1)       IM(VIN)     IP(VIN)     


   1.000E+00   1.000E+00   0.000E+00   2.507E+00  -1.350E+02
   1.023E+00   1.000E+00   0.000E+00   2.536E+00  -1.350E+02
   1.047E+00   1.000E+00   0.000E+00   2.565E+00  -1.350E+02
   1.072E+00   1.000E+00   0.000E+00   2.595E+00  -1.350E+02
   1.096E+00   1.000E+00   0.000E+00   2.625E+00  -1.350E+02
   1.122E+00   1.000E+00   0.000E+00   2.655E+00  -1.350E+02
   1.148E+00   1.000E+00   0.000E+00   2.686E+00  -1.350E+02
   1.175E+00   1.000E+00   0.000E+00   2.717E+00  -1.350E+02
   1.202E+00   1.000E+00   0.000E+00   2.749E+00  -1.350E+02
   1.230E+00   1.000E+00   0.000E+00   2.780E+00  -1.350E+02
   1.259E+00   1.000E+00   0.000E+00   2.813E+00  -1.350E+02
   1.288E+00   1.000E+00   0.000E+00   2.845E+00  -1.350E+02
   1.318E+00   1.000E+00   0.000E+00   2.878E+00  -1.350E+02
   1.349E+00   1.000E+00   0.000E+00   2.911E+00  -1.350E+02
   1.380E+00   1.000E+00   0.000E+00   2.945E+00  -1.350E+02
   1.413E+00   1.000E+00   0.000E+00   2.979E+00  -1.350E+02
   1.445E+00   1.000E+00   0.000E+00   3.014E+00  -1.350E+02
   1.479E+00   1.000E+00   0.000E+00   3.048E+00  -1.350E+02
   1.514E+00   1.000E+00   0.000E+00   3.084E+00  -1.350E+02
   1.549E+00   1.000E+00   0.000E+00   3.119E+00  -1.350E+02
   1.585E+00   1.000E+00   0.000E+00   3.156E+00  -1.350E+02
   1.622E+00   1.000E+00   0.000E+00   3.192E+00  -1.350E+02
   1.660E+00   1.000E+00   0.000E+00   3.229E+00  -1.350E+02
   1.698E+00   1.000E+00   0.000E+00   3.266E+00  -1.350E+02
   1.738E+00   1.000E+00   0.000E+00   3.304E+00  -1.350E+02
   1.778E+00   1.000E+00   0.000E+00   3.343E+00  -1.350E+02
   1.820E+00   1.000E+00   0.000E+00   3.381E+00  -1.350E+02
   1.862E+00   1.000E+00   0.000E+00   3.420E+00  -1.350E+02
   1.905E+00   1.000E+00   0.000E+00   3.460E+00  -1.350E+02
   1.950E+00   1.000E+00   0.000E+00   3.500E+00  -1.350E+02
   1.995E+00   1.000E+00   0.000E+00   3.541E+00  -1.350E+02
   2.042E+00   1.000E+00   0.000E+00   3.582E+00  -1.350E+02
   2.089E+00   1.000E+00   0.000E+00   3.623E+00  -1.350E+02
   2.138E+00   1.000E+00   0.000E+00   3.665E+00  -1.350E+02
   2.188E+00   1.000E+00   0.000E+00   3.708E+00  -1.350E+02
   2.239E+00   1.000E+00   0.000E+00   3.751E+00  -1.350E+02
   2.291E+00   1.000E+00   0.000E+00   3.794E+00  -1.350E+02
   2.344E+00   1.000E+00   0.000E+00   3.838E+00  -1.350E+02
   2.399E+00   1.000E+00   0.000E+00   3.882E+00  -1.350E+02
   2.455E+00   1.000E+00   0.000E+00   3.927E+00  -1.350E+02
   2.512E+00   1.000E+00   0.000E+00   3.973E+00  -1.350E+02
   2.570E+00   1.000E+00   0.000E+00   4.019E+00  -1.350E+02
   2.630E+00   1.000E+00   0.000E+00   4.065E+00  -1.350E+02
   2.692E+00   1.000E+00   0.000E+00   4.113E+00  -1.350E+02
   2.754E+00   1.000E+00   0.000E+00   4.160E+00  -1.350E+02
   2.818E+00   1.000E+00   0.000E+00   4.208E+00  -1.350E+02
   2.884E+00   1.000E+00   0.000E+00   4.257E+00  -1.350E+02
   2.951E+00   1.000E+00   0.000E+00   4.306E+00  -1.350E+02
   3.020E+00   1.000E+00   0.000E+00   4.356E+00  -1.350E+02
   3.090E+00   1.000E+00   0.000E+00   4.407E+00  -1.350E+02
   3.162E+00   1.000E+00   0.000E+00   4.458E+00  -1.350E+02
   3.236E+00   1.000E+00   0.000E+00   4.509E+00  -1.350E+02
   3.311E+00   1.000E+00   0.000E+00   4.561E+00  -1.350E+02
   3.388E+00   1.000E+00   0.000E+00   4.614E+00  -1.350E+02
   3.467E+00   1.000E+00   0.000E+00   4.668E+00  -1.350E+02
   3.548E+00   1.000E+00   0.000E+00   4.722E+00  -1.350E+02
   3.631E+00   1.000E+00   0.000E+00   4.776E+00  -1.350E+02
   3.715E+00   1.000E+00   0.000E+00   4.831E+00  -1.350E+02
   3.802E+00   1.000E+00   0.000E+00   4.887E+00  -1.350E+02
   3.890E+00   1.000E+00   0.000E+00   4.944E+00  -1.350E+02
   3.981E+00   1.000E+00   0.000E+00   5.001E+00  -1.350E+02
   4.074E+00   1.000E+00   0.000E+00   5.059E+00  -1.350E+02
   4.169E+00   1.000E+00   0.000E+00   5.118E+00  -1.350E+02
   4.266E+00   1.000E+00   0.000E+00   5.177E+00  -1.350E+02
   4.365E+00   1.000E+00   0.000E+00   5.237E+00  -1.350E+02
   4.467E+00   1.000E+00   0.000E+00   5.298E+00  -1.350E+02
   4.571E+00   1.000E+00   0.000E+00   5.359E+00  -1.350E+02
   4.677E+00   1.000E+00   0.000E+00   5.421E+00  -1.350E+02
   4.786E+00   1.000E+00   0.000E+00   5.484E+00  -1.350E+02
   4.898E+00   1.000E+00   0.000E+00   5.547E+00  -1.350E+02
   5.012E+00   1.000E+00   0.000E+00   5.612E+00  -1.350E+02
   5.129E+00   1.000E+00   0.000E+00   5.677E+00  -1.350E+02
   5.248E+00   1.000E+00   0.000E+00   5.742E+00  -1.350E+02
   5.370E+00   1.000E+00   0.000E+00   5.809E+00  -1.350E+02
   5.495E+00   1.000E+00   0.000E+00   5.876E+00  -1.350E+02
   5.623E+00   1.000E+00   0.000E+00   5.944E+00  -1.350E+02
   5.754E+00   1.000E+00   0.000E+00   6.013E+00  -1.350E+02
   5.888E+00   1.000E+00   0.000E+00   6.083E+00  -1.350E+02
   6.026E+00   1.000E+00   0.000E+00   6.153E+00  -1.350E+02
   6.166E+00   1.000E+00   0.000E+00   6.225E+00  -1.350E+02
   6.310E+00   1.000E+00   0.000E+00   6.297E+00  -1.350E+02
   6.457E+00   1.000E+00   0.000E+00   6.370E+00  -1.350E+02
   6.607E+00   1.000E+00   0.000E+00   6.443E+00  -1.350E+02
   6.761E+00   1.000E+00   0.000E+00   6.518E+00  -1.350E+02
   6.918E+00   1.000E+00   0.000E+00   6.593E+00  -1.350E+02
   7.079E+00   1.000E+00   0.000E+00   6.670E+00  -1.350E+02
   7.244E+00   1.000E+00   0.000E+00   6.747E+00  -1.350E+02
   7.413E+00   1.000E+00   0.000E+00   6.825E+00  -1.350E+02
   7.586E+00   1.000E+00   0.000E+00   6.904E+00  -1.350E+02
   7.762E+00   1.000E+00   0.000E+00   6.984E+00  -1.350E+02
   7.943E+00   1.000E+00   0.000E+00   7.065E+00  -1.350E+02
   8.128E+00   1.000E+00   0.000E+00   7.147E+00  -1.350E+02
   8.318E+00   1.000E+00   0.000E+00   7.229E+00  -1.350E+02
   8.511E+00   1.000E+00   0.000E+00   7.313E+00  -1.350E+02
   8.710E+00   1.000E+00   0.000E+00   7.398E+00  -1.350E+02
   8.913E+00   1.000E+00   0.000E+00   7.483E+00  -1.350E+02
   9.120E+00   1.000E+00   0.000E+00   7.570E+00  -1.350E+02
   9.333E+00   1.000E+00   0.000E+00   7.657E+00  -1.350E+02
   9.550E+00   1.000E+00   0.000E+00   7.746E+00  -1.350E+02
   9.772E+00   1.000E+00   0.000E+00   7.836E+00  -1.350E+02
   1.000E+01   1.000E+00   0.000E+00   7.926E+00  -1.350E+02
   1.023E+01   1.000E+00   0.000E+00   8.018E+00  -1.350E+02
   1.047E+01   1.000E+00   0.000E+00   8.111E+00  -1.350E+02
   1.072E+01   1.000E+00   0.000E+00   8.205E+00  -1.350E+02
   1.096E+01   1.000E+00   0.000E+00   8.300E+00  -1.350E+02
   1.122E+01   1.000E+00   0.000E+00   8.396E+00  -1.350E+02
   1.148E+01   1.000E+00   0.000E+00   8.493E+00  -1.350E+02
   1.175E+01   1.000E+00   0.000E+00   8.592E+00  -1.350E+02
   1.202E+01   1.000E+00   0.000E+00   8.691E+00  -1.350E+02
   1.230E+01   1.000E+00   0.000E+00   8.792E+00  -1.350E+02
   1.259E+01   1.000E+00   0.000E+00   8.894E+00  -1.350E+02
   1.288E+01   1.000E+00   0.000E+00   8.997E+00  -1.350E+02
   1.318E+01   1.000E+00   0.000E+00   9.101E+00  -1.350E+02
   1.349E+01   1.000E+00   0.000E+00   9.206E+00  -1.350E+02
   1.380E+01   1.000E+00   0.000E+00   9.313E+00  -1.350E+02
   1.413E+01   1.000E+00   0.000E+00   9.421E+00  -1.350E+02
   1.445E+01   1.000E+00   0.000E+00   9.530E+00  -1.350E+02
   1.479E+01   1.000E+00   0.000E+00   9.641E+00  -1.350E+02
   1.514E+01   1.000E+00   0.000E+00   9.752E+00  -1.350E+02
   1.549E+01   1.000E+00   0.000E+00   9.865E+00  -1.350E+02
   1.585E+01   1.000E+00   0.000E+00   9.979E+00  -1.350E+02
   1.622E+01   1.000E+00   0.000E+00   1.010E+01  -1.350E+02
   1.660E+01   1.000E+00   0.000E+00   1.021E+01  -1.350E+02
   1.698E+01   1.000E+00   0.000E+00   1.033E+01  -1.350E+02
   1.738E+01   1.000E+00   0.000E+00   1.045E+01  -1.350E+02
   1.778E+01   1.000E+00   0.000E+00   1.057E+01  -1.350E+02
   1.820E+01   1.000E+00   0.000E+00   1.069E+01  -1.350E+02
   1.862E+01   1.000E+00   0.000E+00   1.082E+01  -1.350E+02
   1.905E+01   1.000E+00   0.000E+00   1.094E+01  -1.350E+02
   1.950E+01   1.000E+00   0.000E+00   1.107E+01  -1.350E+02
   1.995E+01   1.000E+00   0.000E+00   1.120E+01  -1.350E+02
   2.042E+01   1.000E+00   0.000E+00   1.133E+01  -1.350E+02
   2.089E+01   1.000E+00   0.000E+00   1.146E+01  -1.350E+02
   2.138E+01   1.000E+00   0.000E+00   1.159E+01  -1.350E+02
   2.188E+01   1.000E+00   0.000E+00   1.172E+01  -1.350E+02
   2.239E+01   1.000E+00   0.000E+00   1.186E+01  -1.350E+02
   2.291E+01   1.000E+00   0.000E+00   1.200E+01  -1.350E+02
   2.344E+01   1.000E+00   0.000E+00   1.214E+01  -1.350E+02
   2.399E+01   1.000E+00   0.000E+00   1.228E+01  -1.350E+02
   2.455E+01   1.000E+00   0.000E+00   1.242E+01  -1.350E+02
   2.512E+01   1.000E+00   0.000E+00   1.256E+01  -1.350E+02
   2.570E+01   1.000E+00   0.000E+00   1.271E+01  -1.350E+02
   2.630E+01   1.000E+00   0.000E+00   1.286E+01  -1.350E+02
   2.692E+01   1.000E+00   0.000E+00   1.300E+01  -1.350E+02
   2.754E+01   1.000E+00   0.000E+00   1.315E+01  -1.350E+02
   2.818E+01   1.000E+00   0.000E+00   1.331E+01  -1.350E+02
   2.884E+01   1.000E+00   0.000E+00   1.346E+01  -1.350E+02
   2.951E+01   1.000E+00   0.000E+00   1.362E+01  -1.350E+02
   3.020E+01   1.000E+00   0.000E+00   1.377E+01  -1.350E+02
   3.090E+01   1.000E+00   0.000E+00   1.393E+01  -1.350E+02
   3.162E+01   1.000E+00   0.000E+00   1.410E+01  -1.350E+02
   3.236E+01   1.000E+00   0.000E+00   1.426E+01  -1.350E+02
   3.311E+01   1.000E+00   0.000E+00   1.442E+01  -1.350E+02
   3.388E+01   1.000E+00   0.000E+00   1.459E+01  -1.350E+02
   3.467E+01   1.000E+00   0.000E+00   1.476E+01  -1.350E+02
   3.548E+01   1.000E+00   0.000E+00   1.493E+01  -1.350E+02
   3.631E+01   1.000E+00   0.000E+00   1.510E+01  -1.350E+02
   3.715E+01   1.000E+00   0.000E+00   1.528E+01  -1.350E+02
   3.802E+01   1.000E+00   0.000E+00   1.546E+01  -1.350E+02
   3.890E+01   1.000E+00   0.000E+00   1.564E+01  -1.350E+02
   3.981E+01   1.000E+00   0.000E+00   1.582E+01  -1.350E+02
   4.074E+01   1.000E+00   0.000E+00   1.600E+01  -1.350E+02
   4.169E+01   1.000E+00   0.000E+00   1.618E+01  -1.350E+02
   4.266E+01   1.000E+00   0.000E+00   1.637E+01  -1.350E+02
   4.365E+01   1.000E+00   0.000E+00   1.656E+01  -1.350E+02
   4.467E+01   1.000E+00   0.000E+00   1.675E+01  -1.350E+02
   4.571E+01   1.000E+00   0.000E+00   1.695E+01  -1.350E+02
   4.677E+01   1.000E+00   0.000E+00   1.714E+01  -1.350E+02
   4.786E+01   1.000E+00   0.000E+00   1.734E+01  -1.350E+02
   4.898E+01   1.000E+00   0.000E+00   1.754E+01  -1.350E+02
   5.012E+01   1.000E+00   0.000E+00   1.775E+01  -1.350E+02
   5.129E+01   1.000E+00   0.000E+00   1.795E+01  -1.350E+02
   5.248E+01   1.000E+00   0.000E+00   1.816E+01  -1.350E+02
   5.370E+01   1.000E+00   0.000E+00   1.837E+01  -1.350E+02
   5.495E+01   1.000E+00   0.000E+00   1.858E+01  -1.350E+02
   5.623E+01   1.000E+00   0.000E+00   1.880E+01  -1.350E+02
   5.754E+01   1.000E+00   0.000E+00   1.901E+01  -1.351E+02
   5.888E+01   1.000E+00   0.000E+00   1.923E+01  -1.351E+02
   6.026E+01   1.000E+00   0.000E+00   1.946E+01  -1.351E+02
   6.166E+01   1.000E+00   0.000E+00   1.968E+01  -1.351E+02
   6.310E+01   1.000E+00   0.000E+00   1.991E+01  -1.351E+02
   6.457E+01   1.000E+00   0.000E+00   2.014E+01  -1.351E+02
   6.607E+01   1.000E+00   0.000E+00   2.037E+01  -1.351E+02
   6.761E+01   1.000E+00   0.000E+00   2.061E+01  -1.351E+02
   6.918E+01   1.000E+00   0.000E+00   2.085E+01  -1.351E+02
   7.079E+01   1.000E+00   0.000E+00   2.109E+01  -1.351E+02
   7.244E+01   1.000E+00   0.000E+00   2.133E+01  -1.351E+02
   7.413E+01   1.000E+00   0.000E+00   2.158E+01  -1.351E+02
   7.586E+01   1.000E+00   0.000E+00   2.183E+01  -1.351E+02
   7.762E+01   1.000E+00   0.000E+00   2.208E+01  -1.351E+02
   7.943E+01   1.000E+00   0.000E+00   2.234E+01  -1.351E+02
   8.128E+01   1.000E+00   0.000E+00   2.260E+01  -1.351E+02
   8.318E+01   1.000E+00   0.000E+00   2.286E+01  -1.351E+02
   8.511E+01   1.000E+00   0.000E+00   2.313E+01  -1.351E+02
   8.710E+01   1.000E+00   0.000E+00   2.339E+01  -1.351E+02
   8.913E+01   1.000E+00   0.000E+00   2.366E+01  -1.351E+02
   9.120E+01   1.000E+00   0.000E+00   2.394E+01  -1.351E+02
   9.333E+01   1.000E+00   0.000E+00   2.422E+01  -1.351E+02
   9.550E+01   1.000E+00   0.000E+00   2.450E+01  -1.351E+02
   9.772E+01   1.000E+00   0.000E+00   2.478E+01  -1.351E+02
   1.000E+02   1.000E+00   0.000E+00   2.507E+01  -1.351E+02
   1.023E+02   1.000E+00   0.000E+00   2.536E+01  -1.351E+02
   1.047E+02   1.000E+00   0.000E+00   2.565E+01  -1.351E+02
   1.072E+02   1.000E+00   0.000E+00   2.595E+01  -1.351E+02
   1.096E+02   1.000E+00   0.000E+00   2.625E+01  -1.351E+02
   1.122E+02   1.000E+00   0.000E+00   2.655E+01  -1.351E+02
   1.148E+02   1.000E+00   0.000E+00   2.686E+01  -1.351E+02
   1.175E+02   1.000E+00   0.000E+00   2.717E+01  -1.351E+02
   1.202E+02   1.000E+00   0.000E+00   2.749E+01  -1.351E+02
   1.230E+02   1.000E+00   0.000E+00   2.780E+01  -1.351E+02
   1.259E+02   1.000E+00   0.000E+00   2.813E+01  -1.351E+02
   1.288E+02   1.000E+00   0.000E+00   2.845E+01  -1.351E+02
   1.318E+02   1.000E+00   0.000E+00   2.878E+01  -1.351E+02
   1.349E+02   1.000E+00   0.000E+00   2.911E+01  -1.351E+02
   1.380E+02   1.000E+00   0.000E+00   2.945E+01  -1.351E+02
   1.413E+02   1.000E+00   0.000E+00   2.979E+01  -1.351E+02
   1.445E+02   1.000E+00   0.000E+00   3.014E+01  -1.351E+02
   1.479E+02   1.000E+00   0.000E+00   3.048E+01  -1.351E+02
   1.514E+02   1.000E+00   0.000E+00   3.084E+01  -1.351E+02
   1.549E+02   1.000E+00   0.000E+00   3.119E+01  -1.351E+02
   1.585E+02   1.000E+00   0.000E+00   3.156E+01  -1.351E+02
   1.622E+02   1.000E+00   0.000E+00   3.192E+01  -1.351E+02
   1.660E+02   1.000E+00   0.000E+00   3.229E+01  -1.351E+02
   1.698E+02   1.000E+00   0.000E+00   3.266E+01  -1.351E+02
   1.738E+02   1.000E+00   0.000E+00   3.304E+01  -1.351E+02
   1.778E+02   1.000E+00   0.000E+00   3.342E+01  -1.351E+02
   1.820E+02   1.000E+00   0.000E+00   3.381E+01  -1.351E+02
   1.862E+02   1.000E+00   0.000E+00   3.420E+01  -1.352E+02
   1.905E+02   1.000E+00   0.000E+00   3.460E+01  -1.352E+02
   1.950E+02   1.000E+00   0.000E+00   3.500E+01  -1.352E+02
   1.995E+02   1.000E+00   0.000E+00   3.541E+01  -1.352E+02
   2.042E+02   1.000E+00   0.000E+00   3.582E+01  -1.352E+02
   2.089E+02   1.000E+00   0.000E+00   3.623E+01  -1.352E+02
   2.138E+02   1.000E+00   0.000E+00   3.665E+01  -1.352E+02
   2.188E+02   1.000E+00   0.000E+00   3.708E+01  -1.352E+02
   2.239E+02   1.000E+00   0.000E+00   3.751E+01  -1.352E+02
   2.291E+02   1.000E+00   0.000E+00   3.794E+01  -1.352E+02
   2.344E+02   1.000E+00   0.000E+00   3.838E+01  -1.352E+02
   2.399E+02   1.000E+00   0.000E+00   3.882E+01  -1.352E+02
   2.455E+02   1.000E+00   0.000E+00   3.927E+01  -1.352E+02
   2.512E+02   1.000E+00   0.000E+00   3.973E+01  -1.352E+02
   2.570E+02   1.000E+00   0.000E+00   4.019E+01  -1.352E+02
   2.630E+02   1.000E+00   0.000E+00   4.065E+01  -1.352E+02
   2.692E+02   1.000E+00   0.000E+00   4.112E+01  -1.352E+02
   2.754E+02   1.000E+00   0.000E+00   4.160E+01  -1.352E+02
   2.818E+02   1.000E+00   0.000E+00   4.208E+01  -1.352E+02
   2.884E+02   1.000E+00   0.000E+00   4.257E+01  -1.352E+02
   2.951E+02   1.000E+00   0.000E+00   4.306E+01  -1.352E+02
   3.020E+02   1.000E+00   0.000E+00   4.356E+01  -1.352E+02
   3.090E+02   1.000E+00   0.000E+00   4.407E+01  -1.353E+02
   3.162E+02   1.000E+00   0.000E+00   4.458E+01  -1.353E+02
   3.236E+02   1.000E+00   0.000E+00   4.509E+01  -1.353E+02
   3.311E+02   1.000E+00   0.000E+00   4.561E+01  -1.353E+02
   3.388E+02   1.000E+00   0.000E+00   4.614E+01  -1.353E+02
   3.467E+02   1.000E+00   0.000E+00   4.667E+01  -1.353E+02
   3.548E+02   1.000E+00   0.000E+00   4.721E+01  -1.353E+02
   3.631E+02   1.000E+00   0.000E+00   4.776E+01  -1.353E+02
   3.715E+02   1.000E+00   0.000E+00   4.831E+01  -1.353E+02
   3.802E+02   1.000E+00   0.000E+00   4.887E+01  -1.353E+02
   3.890E+02   1.000E+00   0.000E+00   4.944E+01  -1.353E+02
   3.981E+02   1.000E+00   0.000E+00   5.001E+01  -1.353E+02
   4.074E+02   1.000E+00   0.000E+00   5.059E+01  -1.353E+02
   4.169E+02   1.000E+00   0.000E+00   5.117E+01  -1.353E+02
   4.266E+02   1.000E+00   0.000E+00   5.177E+01  -1.353E+02
   4.365E+02   1.000E+00   0.000E+00   5.237E+01  -1.354E+02
   4.467E+02   1.000E+00   0.000E+00   5.297E+01  -1.354E+02
   4.571E+02   1.000E+00   0.000E+00   5.359E+01  -1.354E+02
   4.677E+02   1.000E+00   0.000E+00   5.421E+01  -1.354E+02
   4.786E+02   1.000E+00   0.000E+00   5.483E+01  -1.354E+02
   4.898E+02   1.000E+00   0.000E+00   5.547E+01  -1.354E+02
   5.012E+02   1.000E+00   0.000E+00   5.611E+01  -1.354E+02
   5.129E+02   1.000E+00   0.000E+00   5.676E+01  -1.354E+02
   5.248E+02   1.000E+00   0.000E+00   5.742E+01  -1.354E+02
   5.370E+02   1.000E+00   0.000E+00   5.809E+01  -1.354E+02
   5.495E+02   1.000E+00   0.000E+00   5.876E+01  -1.354E+02
   5.623E+02   1.000E+00   0.000E+00   5.944E+01  -1.355E+02
   5.754E+02   1.000E+00   0.000E+00   6.013E+01  -1.355E+02
   5.888E+02   1.000E+00   0.000E+00   6.082E+01  -1.355E+02
   6.026E+02   1.000E+00   0.000E+00   6.153E+01  -1.355E+02
   6.166E+02   1.000E+00   0.000E+00   6.224E+01  -1.355E+02
   6.310E+02   1.000E+00   0.000E+00   6.296E+01  -1.355E+02
   6.457E+02   1.000E+00   0.000E+00   6.369E+01  -1.355E+02
