
**** 12/13/19 16:15:57 ******* PSpice Lite (March 2016) ******* ID# 10813 ****

 * Matlab created *.cir-file *


 ****     CIRCUIT DESCRIPTION


******************************************************************************



.lib C:\Cadence\SPB_17.2\tools\pspice\library\eval.lib
VIN        1   0   AC 1V
Rp 1 0 21.24298386366024
Cp 1 0 0.002414529118663077
R1 1 2 3.681605899141823
C1 2 0 4.322976099342793
R2 1 3 0.5438092311884086
C2 3 0 0.6385458882433493
R3 1 4 0.08032594689036705
C3 4 0 0.09431947853111548
.AC DEC 100 0.01 100
.PRINT AC VM(1) VP(1) IM(VIN) IP(VIN)
.END

**** 12/13/19 16:15:57 ******* PSpice Lite (March 2016) ******* ID# 10813 ****

 * Matlab created *.cir-file *


 ****     SMALL SIGNAL BIAS SOLUTION       TEMPERATURE =   27.000 DEG C


******************************************************************************



 NODE   VOLTAGE     NODE   VOLTAGE     NODE   VOLTAGE     NODE   VOLTAGE


(    1)    0.0000  (    2)    0.0000  (    3)    0.0000  (    4)    0.0000  




    VOLTAGE SOURCE CURRENTS
    NAME         CURRENT

    VIN          0.000E+00

    TOTAL POWER DISSIPATION   0.00E+00  WATTS


**** 12/13/19 16:15:57 ******* PSpice Lite (March 2016) ******* ID# 10813 ****

 * Matlab created *.cir-file *


 ****     AC ANALYSIS                      TEMPERATURE =   27.000 DEG C


******************************************************************************



  FREQ        VM(1)       VP(1)       IM(VIN)     IP(VIN)     


   1.000E-02   1.000E+00   0.000E+00   2.586E-01  -1.353E+02
   1.023E-02   1.000E+00   0.000E+00   2.616E-01  -1.356E+02
   1.047E-02   1.000E+00   0.000E+00   2.646E-01  -1.359E+02
   1.072E-02   1.000E+00   0.000E+00   2.675E-01  -1.363E+02
   1.096E-02   1.000E+00   0.000E+00   2.704E-01  -1.366E+02
   1.122E-02   1.000E+00   0.000E+00   2.733E-01  -1.369E+02
   1.148E-02   1.000E+00   0.000E+00   2.761E-01  -1.372E+02
   1.175E-02   1.000E+00   0.000E+00   2.790E-01  -1.375E+02
   1.202E-02   1.000E+00   0.000E+00   2.817E-01  -1.379E+02
   1.230E-02   1.000E+00   0.000E+00   2.845E-01  -1.382E+02
   1.259E-02   1.000E+00   0.000E+00   2.872E-01  -1.385E+02
   1.288E-02   1.000E+00   0.000E+00   2.899E-01  -1.388E+02
   1.318E-02   1.000E+00   0.000E+00   2.925E-01  -1.391E+02
   1.349E-02   1.000E+00   0.000E+00   2.951E-01  -1.394E+02
   1.380E-02   1.000E+00   0.000E+00   2.977E-01  -1.396E+02
   1.413E-02   1.000E+00   0.000E+00   3.003E-01  -1.399E+02
   1.445E-02   1.000E+00   0.000E+00   3.028E-01  -1.402E+02
   1.479E-02   1.000E+00   0.000E+00   3.052E-01  -1.405E+02
   1.514E-02   1.000E+00   0.000E+00   3.077E-01  -1.407E+02
   1.549E-02   1.000E+00   0.000E+00   3.101E-01  -1.410E+02
   1.585E-02   1.000E+00   0.000E+00   3.125E-01  -1.412E+02
   1.622E-02   1.000E+00   0.000E+00   3.148E-01  -1.414E+02
   1.660E-02   1.000E+00   0.000E+00   3.171E-01  -1.417E+02
   1.698E-02   1.000E+00   0.000E+00   3.194E-01  -1.419E+02
   1.738E-02   1.000E+00   0.000E+00   3.216E-01  -1.421E+02
   1.778E-02   1.000E+00   0.000E+00   3.239E-01  -1.423E+02
   1.820E-02   1.000E+00   0.000E+00   3.261E-01  -1.425E+02
   1.862E-02   1.000E+00   0.000E+00   3.282E-01  -1.427E+02
   1.905E-02   1.000E+00   0.000E+00   3.304E-01  -1.428E+02
   1.950E-02   1.000E+00   0.000E+00   3.325E-01  -1.430E+02
   1.995E-02   1.000E+00   0.000E+00   3.346E-01  -1.431E+02
   2.042E-02   1.000E+00   0.000E+00   3.367E-01  -1.433E+02
   2.089E-02   1.000E+00   0.000E+00   3.388E-01  -1.434E+02
   2.138E-02   1.000E+00   0.000E+00   3.409E-01  -1.435E+02
   2.188E-02   1.000E+00   0.000E+00   3.429E-01  -1.436E+02
   2.239E-02   1.000E+00   0.000E+00   3.450E-01  -1.437E+02
   2.291E-02   1.000E+00   0.000E+00   3.470E-01  -1.437E+02
   2.344E-02   1.000E+00   0.000E+00   3.490E-01  -1.438E+02
   2.399E-02   1.000E+00   0.000E+00   3.511E-01  -1.439E+02
   2.455E-02   1.000E+00   0.000E+00   3.531E-01  -1.439E+02
   2.512E-02   1.000E+00   0.000E+00   3.551E-01  -1.439E+02
   2.570E-02   1.000E+00   0.000E+00   3.572E-01  -1.439E+02
   2.630E-02   1.000E+00   0.000E+00   3.592E-01  -1.440E+02
   2.692E-02   1.000E+00   0.000E+00   3.613E-01  -1.439E+02
   2.754E-02   1.000E+00   0.000E+00   3.634E-01  -1.439E+02
   2.818E-02   1.000E+00   0.000E+00   3.655E-01  -1.439E+02
   2.884E-02   1.000E+00   0.000E+00   3.676E-01  -1.438E+02
   2.951E-02   1.000E+00   0.000E+00   3.697E-01  -1.438E+02
   3.020E-02   1.000E+00   0.000E+00   3.719E-01  -1.437E+02
   3.090E-02   1.000E+00   0.000E+00   3.741E-01  -1.436E+02
   3.162E-02   1.000E+00   0.000E+00   3.764E-01  -1.436E+02
   3.236E-02   1.000E+00   0.000E+00   3.786E-01  -1.435E+02
   3.311E-02   1.000E+00   0.000E+00   3.809E-01  -1.433E+02
   3.388E-02   1.000E+00   0.000E+00   3.833E-01  -1.432E+02
   3.467E-02   1.000E+00   0.000E+00   3.857E-01  -1.431E+02
   3.548E-02   1.000E+00   0.000E+00   3.882E-01  -1.429E+02
   3.631E-02   1.000E+00   0.000E+00   3.907E-01  -1.428E+02
   3.715E-02   1.000E+00   0.000E+00   3.932E-01  -1.426E+02
   3.802E-02   1.000E+00   0.000E+00   3.959E-01  -1.424E+02
   3.890E-02   1.000E+00   0.000E+00   3.986E-01  -1.422E+02
   3.981E-02   1.000E+00   0.000E+00   4.013E-01  -1.420E+02
   4.074E-02   1.000E+00   0.000E+00   4.042E-01  -1.418E+02
   4.169E-02   1.000E+00   0.000E+00   4.071E-01  -1.416E+02
   4.266E-02   1.000E+00   0.000E+00   4.101E-01  -1.414E+02
   4.365E-02   1.000E+00   0.000E+00   4.132E-01  -1.411E+02
   4.467E-02   1.000E+00   0.000E+00   4.163E-01  -1.409E+02
   4.571E-02   1.000E+00   0.000E+00   4.196E-01  -1.406E+02
   4.677E-02   1.000E+00   0.000E+00   4.230E-01  -1.404E+02
   4.786E-02   1.000E+00   0.000E+00   4.264E-01  -1.401E+02
   4.898E-02   1.000E+00   0.000E+00   4.300E-01  -1.398E+02
   5.012E-02   1.000E+00   0.000E+00   4.337E-01  -1.396E+02
   5.129E-02   1.000E+00   0.000E+00   4.375E-01  -1.393E+02
   5.248E-02   1.000E+00   0.000E+00   4.414E-01  -1.390E+02
   5.370E-02   1.000E+00   0.000E+00   4.454E-01  -1.387E+02
   5.495E-02   1.000E+00   0.000E+00   4.496E-01  -1.384E+02
   5.623E-02   1.000E+00   0.000E+00   4.539E-01  -1.381E+02
   5.754E-02   1.000E+00   0.000E+00   4.583E-01  -1.378E+02
   5.888E-02   1.000E+00   0.000E+00   4.629E-01  -1.375E+02
   6.026E-02   1.000E+00   0.000E+00   4.677E-01  -1.371E+02
   6.166E-02   1.000E+00   0.000E+00   4.725E-01  -1.368E+02
   6.310E-02   1.000E+00   0.000E+00   4.776E-01  -1.365E+02
   6.457E-02   1.000E+00   0.000E+00   4.827E-01  -1.362E+02
   6.607E-02   1.000E+00   0.000E+00   4.881E-01  -1.358E+02
   6.761E-02   1.000E+00   0.000E+00   4.936E-01  -1.355E+02
   6.918E-02   1.000E+00   0.000E+00   4.993E-01  -1.352E+02
   7.079E-02   1.000E+00   0.000E+00   5.052E-01  -1.349E+02
   7.244E-02   1.000E+00   0.000E+00   5.112E-01  -1.345E+02
   7.413E-02   1.000E+00   0.000E+00   5.175E-01  -1.342E+02
   7.586E-02   1.000E+00   0.000E+00   5.239E-01  -1.339E+02
   7.762E-02   1.000E+00   0.000E+00   5.305E-01  -1.336E+02
   7.943E-02   1.000E+00   0.000E+00   5.374E-01  -1.333E+02
   8.128E-02   1.000E+00   0.000E+00   5.444E-01  -1.329E+02
   8.318E-02   1.000E+00   0.000E+00   5.516E-01  -1.326E+02
   8.511E-02   1.000E+00   0.000E+00   5.591E-01  -1.323E+02
   8.710E-02   1.000E+00   0.000E+00   5.668E-01  -1.320E+02
   8.913E-02   1.000E+00   0.000E+00   5.747E-01  -1.317E+02
   9.120E-02   1.000E+00   0.000E+00   5.828E-01  -1.314E+02
   9.333E-02   1.000E+00   0.000E+00   5.911E-01  -1.312E+02
   9.550E-02   1.000E+00   0.000E+00   5.997E-01  -1.309E+02
   9.772E-02   1.000E+00   0.000E+00   6.085E-01  -1.306E+02
   1.000E-01   1.000E+00   0.000E+00   6.176E-01  -1.304E+02
   1.023E-01   1.000E+00   0.000E+00   6.269E-01  -1.301E+02
   1.047E-01   1.000E+00   0.000E+00   6.364E-01  -1.298E+02
   1.072E-01   1.000E+00   0.000E+00   6.462E-01  -1.296E+02
   1.096E-01   1.000E+00   0.000E+00   6.563E-01  -1.294E+02
   1.122E-01   1.000E+00   0.000E+00   6.666E-01  -1.292E+02
   1.148E-01   1.000E+00   0.000E+00   6.772E-01  -1.289E+02
   1.175E-01   1.000E+00   0.000E+00   6.880E-01  -1.287E+02
   1.202E-01   1.000E+00   0.000E+00   6.991E-01  -1.285E+02
   1.230E-01   1.000E+00   0.000E+00   7.105E-01  -1.284E+02
   1.259E-01   1.000E+00   0.000E+00   7.221E-01  -1.282E+02
   1.288E-01   1.000E+00   0.000E+00   7.341E-01  -1.280E+02
   1.318E-01   1.000E+00   0.000E+00   7.463E-01  -1.279E+02
   1.349E-01   1.000E+00   0.000E+00   7.587E-01  -1.277E+02
   1.380E-01   1.000E+00   0.000E+00   7.715E-01  -1.276E+02
   1.413E-01   1.000E+00   0.000E+00   7.845E-01  -1.275E+02
   1.445E-01   1.000E+00   0.000E+00   7.978E-01  -1.274E+02
   1.479E-01   1.000E+00   0.000E+00   8.114E-01  -1.273E+02
   1.514E-01   1.000E+00   0.000E+00   8.253E-01  -1.272E+02
   1.549E-01   1.000E+00   0.000E+00   8.395E-01  -1.271E+02
   1.585E-01   1.000E+00   0.000E+00   8.539E-01  -1.271E+02
   1.622E-01   1.000E+00   0.000E+00   8.686E-01  -1.270E+02
   1.660E-01   1.000E+00   0.000E+00   8.837E-01  -1.270E+02
   1.698E-01   1.000E+00   0.000E+00   8.989E-01  -1.270E+02
   1.738E-01   1.000E+00   0.000E+00   9.145E-01  -1.270E+02
   1.778E-01   1.000E+00   0.000E+00   9.303E-01  -1.270E+02
   1.820E-01   1.000E+00   0.000E+00   9.464E-01  -1.270E+02
   1.862E-01   1.000E+00   0.000E+00   9.628E-01  -1.270E+02
   1.905E-01   1.000E+00   0.000E+00   9.795E-01  -1.270E+02
   1.950E-01   1.000E+00   0.000E+00   9.964E-01  -1.271E+02
   1.995E-01   1.000E+00   0.000E+00   1.014E+00  -1.272E+02
   2.042E-01   1.000E+00   0.000E+00   1.031E+00  -1.272E+02
   2.089E-01   1.000E+00   0.000E+00   1.049E+00  -1.273E+02
   2.138E-01   1.000E+00   0.000E+00   1.067E+00  -1.274E+02
   2.188E-01   1.000E+00   0.000E+00   1.085E+00  -1.275E+02
   2.239E-01   1.000E+00   0.000E+00   1.103E+00  -1.277E+02
   2.291E-01   1.000E+00   0.000E+00   1.122E+00  -1.278E+02
   2.344E-01   1.000E+00   0.000E+00   1.140E+00  -1.279E+02
   2.399E-01   1.000E+00   0.000E+00   1.159E+00  -1.281E+02
   2.455E-01   1.000E+00   0.000E+00   1.179E+00  -1.283E+02
   2.512E-01   1.000E+00   0.000E+00   1.198E+00  -1.284E+02
   2.570E-01   1.000E+00   0.000E+00   1.218E+00  -1.286E+02
   2.630E-01   1.000E+00   0.000E+00   1.237E+00  -1.288E+02
   2.692E-01   1.000E+00   0.000E+00   1.257E+00  -1.290E+02
   2.754E-01   1.000E+00   0.000E+00   1.277E+00  -1.293E+02
   2.818E-01   1.000E+00   0.000E+00   1.298E+00  -1.295E+02
   2.884E-01   1.000E+00   0.000E+00   1.318E+00  -1.297E+02
   2.951E-01   1.000E+00   0.000E+00   1.338E+00  -1.300E+02
   3.020E-01   1.000E+00   0.000E+00   1.359E+00  -1.302E+02
   3.090E-01   1.000E+00   0.000E+00   1.379E+00  -1.305E+02
   3.162E-01   1.000E+00   0.000E+00   1.400E+00  -1.308E+02
   3.236E-01   1.000E+00   0.000E+00   1.421E+00  -1.311E+02
   3.311E-01   1.000E+00   0.000E+00   1.442E+00  -1.313E+02
   3.388E-01   1.000E+00   0.000E+00   1.462E+00  -1.316E+02
   3.467E-01   1.000E+00   0.000E+00   1.483E+00  -1.319E+02
   3.548E-01   1.000E+00   0.000E+00   1.504E+00  -1.322E+02
   3.631E-01   1.000E+00   0.000E+00   1.525E+00  -1.326E+02
   3.715E-01   1.000E+00   0.000E+00   1.546E+00  -1.329E+02
   3.802E-01   1.000E+00   0.000E+00   1.566E+00  -1.332E+02
   3.890E-01   1.000E+00   0.000E+00   1.587E+00  -1.335E+02
   3.981E-01   1.000E+00   0.000E+00   1.607E+00  -1.339E+02
   4.074E-01   1.000E+00   0.000E+00   1.628E+00  -1.342E+02
   4.169E-01   1.000E+00   0.000E+00   1.648E+00  -1.345E+02
   4.266E-01   1.000E+00   0.000E+00   1.669E+00  -1.349E+02
   4.365E-01   1.000E+00   0.000E+00   1.689E+00  -1.352E+02
   4.467E-01   1.000E+00   0.000E+00   1.709E+00  -1.356E+02
   4.571E-01   1.000E+00   0.000E+00   1.729E+00  -1.359E+02
   4.677E-01   1.000E+00   0.000E+00   1.748E+00  -1.362E+02
   4.786E-01   1.000E+00   0.000E+00   1.768E+00  -1.366E+02
   4.898E-01   1.000E+00   0.000E+00   1.787E+00  -1.369E+02
   5.012E-01   1.000E+00   0.000E+00   1.806E+00  -1.373E+02
   5.129E-01   1.000E+00   0.000E+00   1.825E+00  -1.376E+02
   5.248E-01   1.000E+00   0.000E+00   1.844E+00  -1.380E+02
   5.370E-01   1.000E+00   0.000E+00   1.863E+00  -1.383E+02
   5.495E-01   1.000E+00   0.000E+00   1.881E+00  -1.386E+02
   5.623E-01   1.000E+00   0.000E+00   1.899E+00  -1.390E+02
   5.754E-01   1.000E+00   0.000E+00   1.917E+00  -1.393E+02
   5.888E-01   1.000E+00   0.000E+00   1.935E+00  -1.396E+02
   6.026E-01   1.000E+00   0.000E+00   1.952E+00  -1.399E+02
   6.166E-01   1.000E+00   0.000E+00   1.969E+00  -1.402E+02
   6.310E-01   1.000E+00   0.000E+00   1.986E+00  -1.406E+02
   6.457E-01   1.000E+00   0.000E+00   2.003E+00  -1.409E+02
   6.607E-01   1.000E+00   0.000E+00   2.019E+00  -1.412E+02
   6.761E-01   1.000E+00   0.000E+00   2.035E+00  -1.414E+02
   6.918E-01   1.000E+00   0.000E+00   2.051E+00  -1.417E+02
   7.079E-01   1.000E+00   0.000E+00   2.067E+00  -1.420E+02
   7.244E-01   1.000E+00   0.000E+00   2.082E+00  -1.423E+02
   7.413E-01   1.000E+00   0.000E+00   2.097E+00  -1.425E+02
   7.586E-01   1.000E+00   0.000E+00   2.112E+00  -1.428E+02
   7.762E-01   1.000E+00   0.000E+00   2.127E+00  -1.430E+02
   7.943E-01   1.000E+00   0.000E+00   2.142E+00  -1.432E+02
   8.128E-01   1.000E+00   0.000E+00   2.156E+00  -1.435E+02
   8.318E-01   1.000E+00   0.000E+00   2.170E+00  -1.437E+02
   8.511E-01   1.000E+00   0.000E+00   2.184E+00  -1.439E+02
   8.710E-01   1.000E+00   0.000E+00   2.198E+00  -1.441E+02
   8.913E-01   1.000E+00   0.000E+00   2.212E+00  -1.443E+02
   9.120E-01   1.000E+00   0.000E+00   2.225E+00  -1.444E+02
   9.333E-01   1.000E+00   0.000E+00   2.239E+00  -1.446E+02
   9.550E-01   1.000E+00   0.000E+00   2.252E+00  -1.448E+02
   9.772E-01   1.000E+00   0.000E+00   2.265E+00  -1.449E+02
   1.000E+00   1.000E+00   0.000E+00   2.278E+00  -1.450E+02
   1.023E+00   1.000E+00   0.000E+00   2.291E+00  -1.451E+02
   1.047E+00   1.000E+00   0.000E+00   2.304E+00  -1.453E+02
   1.072E+00   1.000E+00   0.000E+00   2.316E+00  -1.453E+02
   1.096E+00   1.000E+00   0.000E+00   2.329E+00  -1.454E+02
   1.122E+00   1.000E+00   0.000E+00   2.342E+00  -1.455E+02
   1.148E+00   1.000E+00   0.000E+00   2.354E+00  -1.456E+02
   1.175E+00   1.000E+00   0.000E+00   2.367E+00  -1.456E+02
   1.202E+00   1.000E+00   0.000E+00   2.380E+00  -1.457E+02
   1.230E+00   1.000E+00   0.000E+00   2.393E+00  -1.457E+02
   1.259E+00   1.000E+00   0.000E+00   2.405E+00  -1.457E+02
   1.288E+00   1.000E+00   0.000E+00   2.418E+00  -1.457E+02
   1.318E+00   1.000E+00   0.000E+00   2.431E+00  -1.457E+02
   1.349E+00   1.000E+00   0.000E+00   2.444E+00  -1.457E+02
   1.380E+00   1.000E+00   0.000E+00   2.458E+00  -1.456E+02
   1.413E+00   1.000E+00   0.000E+00   2.471E+00  -1.456E+02
   1.445E+00   1.000E+00   0.000E+00   2.484E+00  -1.455E+02
   1.479E+00   1.000E+00   0.000E+00   2.498E+00  -1.455E+02
   1.514E+00   1.000E+00   0.000E+00   2.512E+00  -1.454E+02
   1.549E+00   1.000E+00   0.000E+00   2.526E+00  -1.453E+02
   1.585E+00   1.000E+00   0.000E+00   2.541E+00  -1.452E+02
   1.622E+00   1.000E+00   0.000E+00   2.556E+00  -1.451E+02
   1.660E+00   1.000E+00   0.000E+00   2.571E+00  -1.450E+02
   1.698E+00   1.000E+00   0.000E+00   2.586E+00  -1.448E+02
   1.738E+00   1.000E+00   0.000E+00   2.602E+00  -1.447E+02
   1.778E+00   1.000E+00   0.000E+00   2.618E+00  -1.445E+02
   1.820E+00   1.000E+00   0.000E+00   2.634E+00  -1.444E+02
   1.862E+00   1.000E+00   0.000E+00   2.651E+00  -1.442E+02
   1.905E+00   1.000E+00   0.000E+00   2.668E+00  -1.440E+02
   1.950E+00   1.000E+00   0.000E+00   2.686E+00  -1.438E+02
   1.995E+00   1.000E+00   0.000E+00   2.704E+00  -1.436E+02
   2.042E+00   1.000E+00   0.000E+00   2.723E+00  -1.434E+02
   2.089E+00   1.000E+00   0.000E+00   2.742E+00  -1.432E+02
   2.138E+00   1.000E+00   0.000E+00   2.762E+00  -1.429E+02
   2.188E+00   1.000E+00   0.000E+00   2.783E+00  -1.427E+02
   2.239E+00   1.000E+00   0.000E+00   2.804E+00  -1.425E+02
   2.291E+00   1.000E+00   0.000E+00   2.826E+00  -1.422E+02
   2.344E+00   1.000E+00   0.000E+00   2.848E+00  -1.420E+02
   2.399E+00   1.000E+00   0.000E+00   2.871E+00  -1.417E+02
   2.455E+00   1.000E+00   0.000E+00   2.895E+00  -1.414E+02
   2.512E+00   1.000E+00   0.000E+00   2.920E+00  -1.411E+02
   2.570E+00   1.000E+00   0.000E+00   2.945E+00  -1.409E+02
   2.630E+00   1.000E+00   0.000E+00   2.971E+00  -1.406E+02
   2.692E+00   1.000E+00   0.000E+00   2.998E+00  -1.403E+02
   2.754E+00   1.000E+00   0.000E+00   3.026E+00  -1.400E+02
   2.818E+00   1.000E+00   0.000E+00   3.055E+00  -1.397E+02
   2.884E+00   1.000E+00   0.000E+00   3.085E+00  -1.394E+02
   2.951E+00   1.000E+00   0.000E+00   3.116E+00  -1.391E+02
   3.020E+00   1.000E+00   0.000E+00   3.147E+00  -1.388E+02
   3.090E+00   1.000E+00   0.000E+00   3.180E+00  -1.385E+02
   3.162E+00   1.000E+00   0.000E+00   3.214E+00  -1.382E+02
   3.236E+00   1.000E+00   0.000E+00   3.249E+00  -1.379E+02
   3.311E+00   1.000E+00   0.000E+00   3.285E+00  -1.376E+02
   3.388E+00   1.000E+00   0.000E+00   3.322E+00  -1.373E+02
   3.467E+00   1.000E+00   0.000E+00   3.360E+00  -1.370E+02
   3.548E+00   1.000E+00   0.000E+00   3.399E+00  -1.367E+02
   3.631E+00   1.000E+00   0.000E+00   3.440E+00  -1.364E+02
   3.715E+00   1.000E+00   0.000E+00   3.482E+00  -1.361E+02
   3.802E+00   1.000E+00   0.000E+00   3.525E+00  -1.358E+02
   3.890E+00   1.000E+00   0.000E+00   3.569E+00  -1.355E+02
   3.981E+00   1.000E+00   0.000E+00   3.615E+00  -1.352E+02
   4.074E+00   1.000E+00   0.000E+00   3.662E+00  -1.349E+02
   4.169E+00   1.000E+00   0.000E+00   3.711E+00  -1.346E+02
   4.266E+00   1.000E+00   0.000E+00   3.761E+00  -1.344E+02
   4.365E+00   1.000E+00   0.000E+00   3.812E+00  -1.341E+02
   4.467E+00   1.000E+00   0.000E+00   3.865E+00  -1.338E+02
   4.571E+00   1.000E+00   0.000E+00   3.919E+00  -1.336E+02
   4.677E+00   1.000E+00   0.000E+00   3.975E+00  -1.333E+02
   4.786E+00   1.000E+00   0.000E+00   4.032E+00  -1.331E+02
   4.898E+00   1.000E+00   0.000E+00   4.091E+00  -1.329E+02
   5.012E+00   1.000E+00   0.000E+00   4.152E+00  -1.327E+02
   5.129E+00   1.000E+00   0.000E+00   4.214E+00  -1.324E+02
   5.248E+00   1.000E+00   0.000E+00   4.277E+00  -1.322E+02
   5.370E+00   1.000E+00   0.000E+00   4.343E+00  -1.320E+02
   5.495E+00   1.000E+00   0.000E+00   4.409E+00  -1.319E+02
   5.623E+00   1.000E+00   0.000E+00   4.478E+00  -1.317E+02
   5.754E+00   1.000E+00   0.000E+00   4.548E+00  -1.315E+02
   5.888E+00   1.000E+00   0.000E+00   4.620E+00  -1.314E+02
   6.026E+00   1.000E+00   0.000E+00   4.694E+00  -1.312E+02
   6.166E+00   1.000E+00   0.000E+00   4.769E+00  -1.311E+02
   6.310E+00   1.000E+00   0.000E+00   4.846E+00  -1.310E+02
   6.457E+00   1.000E+00   0.000E+00   4.925E+00  -1.309E+02
   6.607E+00   1.000E+00   0.000E+00   5.006E+00  -1.308E+02
   6.761E+00   1.000E+00   0.000E+00   5.088E+00  -1.307E+02
   6.918E+00   1.000E+00   0.000E+00   5.172E+00  -1.306E+02
   7.079E+00   1.000E+00   0.000E+00   5.258E+00  -1.306E+02
   7.244E+00   1.000E+00   0.000E+00   5.345E+00  -1.305E+02
   7.413E+00   1.000E+00   0.000E+00   5.435E+00  -1.305E+02
   7.586E+00   1.000E+00   0.000E+00   5.526E+00  -1.305E+02
   7.762E+00   1.000E+00   0.000E+00   5.618E+00  -1.305E+02
   7.943E+00   1.000E+00   0.000E+00   5.713E+00  -1.305E+02
   8.128E+00   1.000E+00   0.000E+00   5.809E+00  -1.305E+02
   8.318E+00   1.000E+00   0.000E+00   5.907E+00  -1.305E+02
   8.511E+00   1.000E+00   0.000E+00   6.006E+00  -1.306E+02
   8.710E+00   1.000E+00   0.000E+00   6.107E+00  -1.307E+02
   8.913E+00   1.000E+00   0.000E+00   6.210E+00  -1.307E+02
   9.120E+00   1.000E+00   0.000E+00   6.314E+00  -1.308E+02
   9.333E+00   1.000E+00   0.000E+00   6.420E+00  -1.309E+02
   9.550E+00   1.000E+00   0.000E+00   6.527E+00  -1.310E+02
   9.772E+00   1.000E+00   0.000E+00   6.636E+00  -1.312E+02
   1.000E+01   1.000E+00   0.000E+00   6.746E+00  -1.313E+02
   1.023E+01   1.000E+00   0.000E+00   6.858E+00  -1.315E+02
   1.047E+01   1.000E+00   0.000E+00   6.971E+00  -1.316E+02
